T4A40 000:007.015   SEGGER J-Link V7.88k Log File
T4A40 000:007.125   DLL Compiled: Jul  5 2023 14:55:12
T4A40 000:007.130   Logging started @ 2024-01-03 08:26
T4A40 000:007.134 - 7.136ms
T4A40 000:007.144 JLINK_SetWarnOutHandler(...)
T4A40 000:007.150 - 0.007ms
T4A40 000:007.155 JLINK_OpenEx(...)
T4A40 000:014.259   Firmware: J-Link V9 compiled Dec 13 2022 11:14:50
T4A40 000:015.746   Firmware: J-Link V9 compiled Dec 13 2022 11:14:50
T4A40 000:015.957   Decompressing FW timestamp took 141 us
T4A40 000:027.471   Hardware: V9.70
T4A40 000:027.496   S/N: 69730346
T4A40 000:027.502   OEM: SEGGER
T4A40 000:027.508   Feature(s): RDI, GDB, FlashDL, FlashBP, JFlash
T4A40 000:030.251   Bootloader: (Could not read)
T4A40 000:040.206   TELNET listener socket opened on port 19021
T4A40 000:040.399   WEBSRV WEBSRV_Init(): Starting webserver thread(s)
T4A40 000:040.523   WEBSRV Failed to put socket into listener state (port 19080)
T4A40 000:041.042   WEBSRV Webserver running on local port 19081
T4A40 000:041.221   Looking for J-Link GUI Server exe at: C:\Keil_v5\ARM\Segger\JLinkGUIServer.exe
T4A40 000:041.309   Looking for J-Link GUI Server exe at: C:\Program Files\SEGGER\JLink\JLinkGUIServer.exe
T4A40 000:041.346   Forking J-Link GUI Server: C:\Program Files\SEGGER\JLink\JLinkGUIServer.exe
T4A40 000:049.146   J-Link GUI Server info: "J-Link GUI server V7.88k "
T4A40 000:049.874 - 42.928ms returns "O.K."
T4A40 000:050.288 JLINK_GetEmuCaps()
T4A40 000:050.300 - 0.015ms returns 0xB9FF7BBF
T4A40 000:050.312 JLINK_TIF_GetAvailable(...)
T4A40 000:051.068 - 0.767ms
T4A40 000:051.195 JLINK_SetErrorOutHandler(...)
T4A40 000:051.206 - 0.013ms
T4A40 000:051.235 JLINK_ExecCommand("ProjectFile = "C:\Users\sunlord\Desktop\1210\1113NJ_1212\UPDATE\Update\Template\Keil_project\JLinkSettings.ini"", ...). 
T4A40 000:062.205   Ref file found at: C:\Keil_v5\ARM\Segger\JLinkDevices.ref
T4A40 000:062.432   REF file references invalid XML file: C:\Program Files\SEGGER\JLink\JLinkDevices.xml
T4A40 000:062.687 - 11.455ms returns 0x00
T4A40 000:066.778 JLINK_ExecCommand("Device = GD32A503KC", ...). 
T4A40 000:066.841   Flash bank @ 0x08000000: SFL: Parsing sectorization info from ELF file
T4A40 000:066.847     FlashDevice.SectorInfo[0]: .SectorSize = 0x00000400, .SectorStartAddr = 0x00000000
T4A40 000:067.588   Device "GD32A503KC" selected.
T4A40 000:068.190 - 1.398ms returns 0x00
T4A40 000:068.201 JLINK_ExecCommand("DisableConnectionTimeout", ...). 
T4A40 000:068.208 - 0.003ms returns 0x01
T4A40 000:068.214 JLINK_GetHardwareVersion()
T4A40 000:068.218 - 0.006ms returns 97000
T4A40 000:068.226 JLINK_GetDLLVersion()
T4A40 000:068.230 - 0.006ms returns 78811
T4A40 000:068.235 JLINK_GetOEMString(...)
T4A40 000:068.240 JLINK_GetFirmwareString(...)
T4A40 000:068.244 - 0.006ms
T4A40 000:070.005 JLINK_GetDLLVersion()
T4A40 000:070.014 - 0.011ms returns 78811
T4A40 000:070.019 JLINK_GetCompileDateTime()
T4A40 000:070.023 - 0.005ms
T4A40 000:070.569 JLINK_GetFirmwareString(...)
T4A40 000:070.576 - 0.009ms
T4A40 000:071.162 JLINK_GetHardwareVersion()
T4A40 000:071.170 - 0.009ms returns 97000
T4A40 000:071.717 JLINK_GetSN()
T4A40 000:071.724 - 0.009ms returns 69730346
T4A40 000:072.289 JLINK_GetOEMString(...)
T4A40 000:075.911 JLINK_TIF_Select(JLINKARM_TIF_SWD)
T4A40 000:078.632 - 2.735ms returns 0x00
T4A40 000:078.731 JLINK_HasError()
T4A40 000:078.746 JLINK_SetSpeed(5000)
T4A40 000:079.512 - 0.783ms
T4A40 000:079.655 JLINK_GetId()
T4A40 000:081.948   ConfigTargetSettings() start
T4A40 000:081.965    J-Link Script File: Executing ConfigTargetSettings()
T4A40 000:083.425   ConfigTargetSettings() end - Took 13us
T4A40 000:086.482   Found SW-DP with ID 0x0BE12477
T4A40 000:090.781   Old FW that does not support reading DPIDR via DAP jobs
T4A40 000:093.345   DPv0 detected
T4A40 000:095.942   CoreSight SoC-400 or earlier
T4A40 000:097.503   Scanning AP map to find all available APs
T4A40 000:100.973   AP[1]: Stopped AP scan as end of AP map has been reached
T4A40 000:102.379   AP[0]: AHB-AP (IDR: 0x14770015)
T4A40 000:103.826   Iterating through AP map to find AHB-AP to use
T4A40 000:107.540   AP[0]: Core found
T4A40 000:109.307   AP[0]: AHB-AP ROM base: 0xE00FE000
T4A40 000:112.389   CPUID register: 0x410FD214. Implementer code: 0x41 (ARM)
T4A40 000:113.942   Feature set: Mainline
T4A40 000:116.706   Cache: No cache
T4A40 000:118.220   Found Cortex-M33 r0p4, Little endian.
T4A40 000:119.944   -- Max. mem block: 0x000108C0
T4A40 000:126.306   
  ***** Warning: 
T4A40 000:126.326   Cortex-M (ARMv8-M and later): The connected J-Link (S/N 69730346) uses an old firmware module that does not handle I/D-cache correctly. Proper debugging functionality cannot be guaranteed if cache is enabled
T4A40 000:126.345   CPU_ReadMem(4 bytes @ 0xE000EDF0)
T4A40 000:127.475   CPU_ReadMem(4 bytes @ 0xE0002000)
T4A40 000:130.506   FPUnit: 8 code (BP) slots and 0 literal slots
T4A40 000:130.532   CPU_ReadMem(4 bytes @ 0xE000EDFC)
T4A40 000:131.685   CPU_ReadMem(4 bytes @ 0xE0001000)
T4A40 000:132.524   CPU_ReadMem(4 bytes @ 0xE0001000)
T4A40 000:133.300   CPU_ReadMem(4 bytes @ 0xE0001028)
T4A40 000:134.020   CPU_ReadMem(4 bytes @ 0xE0001038)
T4A40 000:134.741   CPU_ReadMem(4 bytes @ 0xE0001048)
T4A40 000:135.543   CPU_ReadMem(4 bytes @ 0xE0001058)
T4A40 000:136.442   CPU_WriteMem(4 bytes @ 0xE0001000)
T4A40 000:137.326   CPU_ReadMem(4 bytes @ 0xE000ED88)
T4A40 000:138.116   CPU_WriteMem(4 bytes @ 0xE000ED88)
T4A40 000:138.735   CPU_ReadMem(4 bytes @ 0xE000ED88)
T4A40 000:139.623   CPU_WriteMem(4 bytes @ 0xE000ED88)
T4A40 000:140.458   CPU_ReadMem(4 bytes @ 0xE000EFB8)
T4A40 000:142.995   Security extension: not implemented
T4A40 000:144.848   CoreSight components:
T4A40 000:146.612   ROMTbl[0] @ E00FE000
T4A40 000:146.635   CPU_ReadMem(64 bytes @ 0xE00FE000)
T4A40 000:147.996   CPU_ReadMem(32 bytes @ 0xE00FFFE0)
T4A40 000:150.759   [0][0]: E00FF000 CID B105100D PID 000BB4C9 ROM Table
T4A40 000:152.332   ROMTbl[1] @ E00FF000
T4A40 000:152.350   CPU_ReadMem(64 bytes @ 0xE00FF000)
T4A40 000:153.737   CPU_ReadMem(32 bytes @ 0xE000EFE0)
T4A40 000:154.691   CPU_ReadMem(4 bytes @ 0xE000EFBC)
T4A40 000:155.545   CPU_ReadMem(4 bytes @ 0xE000EFCC)
T4A40 000:158.412   [1][0]: E000E000 CID B105900D PID 000BBD21 DEVARCH 47702A04 DEVTYPE 00 Cortex-M33
T4A40 000:158.439   CPU_ReadMem(32 bytes @ 0xE0001FE0)
T4A40 000:159.636   CPU_ReadMem(4 bytes @ 0xE0001FBC)
T4A40 000:160.328   CPU_ReadMem(4 bytes @ 0xE0001FCC)
T4A40 000:163.127   [1][1]: E0001000 CID B105900D PID 000BBD21 DEVARCH 47701A02 DEVTYPE 00 DWT
T4A40 000:163.156   CPU_ReadMem(32 bytes @ 0xE0002FE0)
T4A40 000:164.361   CPU_ReadMem(4 bytes @ 0xE0002FBC)
T4A40 000:165.191   CPU_ReadMem(4 bytes @ 0xE0002FCC)
T4A40 000:168.002   [1][2]: E0002000 CID B105900D PID 000BBD21 DEVARCH 47701A03 DEVTYPE 00 FPB
T4A40 000:168.027   CPU_ReadMem(32 bytes @ 0xE0000FE0)
T4A40 000:169.039   CPU_ReadMem(4 bytes @ 0xE0000FBC)
T4A40 000:169.792   CPU_ReadMem(4 bytes @ 0xE0000FCC)
T4A40 000:172.192   [1][3]: E0000000 CID B105900D PID 000BBD21 DEVARCH 47701A01 DEVTYPE 43 ITM
T4A40 000:172.211   CPU_ReadMem(32 bytes @ 0xE0040FE0)
T4A40 000:173.323   CPU_ReadMem(4 bytes @ 0xE0040FBC)
T4A40 000:174.120   CPU_ReadMem(4 bytes @ 0xE0040FCC)
T4A40 000:176.386   [0][1]: E0040000 CID B105900D PID 000BBD21 DEVARCH 00000000 DEVTYPE 11 TPIU
T4A40 000:177.929   Initializing 32768 bytes work RAM @ 0x20000000
T4A40 000:178.409   CPU is running
T4A40 000:178.423   CPU_WriteMem(4 bytes @ 0xE000EDF0)
T4A40 000:179.130   CPU_ReadMem(4 bytes @ 0xE000ED44)
T4A40 000:179.867   CPU is running
T4A40 000:179.877   CPU_WriteMem(4 bytes @ 0xE000EDFC)
T4A40 000:182.299   Reset: Halt core after reset via DEMCR.VC_CORERESET.
T4A40 000:185.930   Reset: Reset device via AIRCR.SYSRESETREQ.
T4A40 000:185.950   CPU is running
T4A40 000:185.960   CPU_WriteMem(4 bytes @ 0xE000ED0C)
T4A40 000:241.810   CPU_ReadMem(4 bytes @ 0xE000EDF0)
T4A40 000:242.447   CPU_ReadMem(4 bytes @ 0xE000EDF0)
T4A40 000:246.199   CPU_WriteMem(4 bytes @ 0xE000EDFC)
T4A40 000:252.821   CPU_ReadMem(4 bytes @ 0xE000EDF0)
T4A40 000:256.787   CPU_ReadMem(4 bytes @ 0xE000EE08)
T4A40 000:257.495   CPU_WriteMem(4 bytes @ 0xE0002000)
T4A40 000:258.235   CPU_ReadMem(4 bytes @ 0xE000EDFC)
T4A40 000:258.814   CPU_ReadMem(4 bytes @ 0xE0001000)
T4A40 000:259.471   CPU_ReadMem(4 bytes @ 0xE000EE08)
T4A40 000:260.149   CPU_WriteMem(32768 bytes @ 0x20000000)
T4A40 000:404.035 - 324.407ms returns 0x0BE12477
T4A40 000:404.229 JLINK_GetDLLVersion()
T4A40 000:404.242 - 0.016ms returns 78811
T4A40 000:404.254 JLINK_CORE_GetFound()
T4A40 000:404.259 - 0.008ms returns 0xE0200FF
T4A40 000:404.276 JLINK_GetDebugInfo(0x100 = JLINKARM_ROM_TABLE_ADDR_INDEX)
T4A40 000:404.283   Value=0xE00FE000
T4A40 000:404.289 - 0.015ms returns 0
T4A40 000:408.143 JLINK_GetDebugInfo(0x100 = JLINKARM_ROM_TABLE_ADDR_INDEX)
T4A40 000:408.160   Value=0xE00FE000
T4A40 000:408.166 - 0.024ms returns 0
T4A40 000:408.171 JLINK_GetDebugInfo(0x101 = JLINKARM_DEBUG_INFO_ETM_ADDR_INDEX)
T4A40 000:408.176   Value=0x00000000
T4A40 000:408.182 - 0.012ms returns 0
T4A40 000:408.187 JLINK_ReadMemEx(0xE0041FF0, 0x10 Bytes, Flags = 0x02000004)
T4A40 000:408.206   CPU_ReadMem(16 bytes @ 0xE0041FF0)
T4A40 000:409.192   Data:  00 00 00 00 00 00 00 00 00 00 00 00 00 00 00 00
T4A40 000:409.203 - 1.018ms returns 16 (0x10)
T4A40 000:409.325 JLINK_GetDebugInfo(0x102 = JLINKARM_DEBUG_INFO_MTB_ADDR_INDEX)
T4A40 000:409.332   Value=0x00000000
T4A40 000:409.338 - 0.014ms returns 0
T4A40 000:409.342 JLINK_GetDebugInfo(0x103 = JLINKARM_DEBUG_INFO_TPIU_ADDR_INDEX)
T4A40 000:409.349   Value=0xE0040000
T4A40 000:409.354 - 0.014ms returns 0
T4A40 000:409.359 JLINK_GetDebugInfo(0x104 = JLINKARM_DEBUG_INFO_ITM_ADDR_INDEX)
T4A40 000:409.363   Value=0xE0000000
T4A40 000:409.369 - 0.011ms returns 0
T4A40 000:409.374 JLINK_GetDebugInfo(0x105 = JLINKARM_DEBUG_INFO_DWT_ADDR_INDEX)
T4A40 000:409.378   Value=0xE0001000
T4A40 000:409.384 - 0.011ms returns 0
T4A40 000:409.388 JLINK_GetDebugInfo(0x106 = JLINKARM_DEBUG_INFO_FPB_ADDR_INDEX)
T4A40 000:409.392   Value=0xE0002000
T4A40 000:409.398 - 0.011ms returns 0
T4A40 000:409.403 JLINK_GetDebugInfo(0x107 = JLINKARM_DEBUG_INFO_NVIC_ADDR_INDEX)
T4A40 000:409.407   Value=0xE000E000
T4A40 000:409.412 - 0.011ms returns 0
T4A40 000:409.417 JLINK_GetDebugInfo(0x10C = JLINKARM_DEBUG_INFO_DBG_ADDR_INDEX)
T4A40 000:409.422   Value=0xE000EDF0
T4A40 000:409.427 - 0.012ms returns 0
T4A40 000:409.432 JLINK_GetDebugInfo(0x01 = Unknown)
T4A40 000:409.443   Value=0x00000001
T4A40 000:409.448 - 0.018ms returns 0
T4A40 000:409.453 JLINK_ReadMemU32(0xE000ED00, 0x1 Items)
T4A40 000:409.462   CPU_ReadMem(4 bytes @ 0xE000ED00)
T4A40 000:410.232   Data:  14 D2 0F 41
T4A40 000:410.241   Debug reg: CPUID
T4A40 000:410.248 - 0.796ms returns 1 (0x1)
T4A40 000:410.348 JLINK_GetDebugInfo(0x10F = JLINKARM_DEBUG_INFO_HAS_CORTEX_M_SECURITY_EXT_INDEX)
T4A40 000:410.354   Value=0x00000000
T4A40 000:410.360 - 0.013ms returns 0
T4A40 000:410.366 JLINK_HasError()
T4A40 000:410.371 JLINK_SetResetType(JLINKARM_CM3_RESET_TYPE_NORMAL)
T4A40 000:410.376 - 0.006ms returns JLINKARM_CM3_RESET_TYPE_NORMAL
T4A40 000:410.381 JLINK_Reset()
T4A40 000:410.610   CPU_WriteMem(4 bytes @ 0xE000EDF0)
T4A40 000:411.353   CPU_ReadMem(4 bytes @ 0xE000ED44)
T4A40 000:412.047   CPU_WriteMem(4 bytes @ 0xE000EDFC)
T4A40 000:414.609   Reset: Halt core after reset via DEMCR.VC_CORERESET.
T4A40 000:417.664   Reset: Reset device via AIRCR.SYSRESETREQ.
T4A40 000:417.685   CPU_WriteMem(4 bytes @ 0xE000ED0C)
T4A40 000:473.693   CPU_ReadMem(4 bytes @ 0xE000EDF0)
T4A40 000:474.346   CPU_ReadMem(4 bytes @ 0xE000EDF0)
T4A40 000:474.987   CPU_WriteMem(4 bytes @ 0xE000EDFC)
T4A40 000:480.992   CPU_ReadMem(4 bytes @ 0xE000EDF0)
T4A40 000:485.060   CPU_ReadMem(4 bytes @ 0xE000EE08)
T4A40 000:485.745   CPU_WriteMem(4 bytes @ 0xE0002000)
T4A40 000:486.507   CPU_ReadMem(4 bytes @ 0xE000EDFC)
T4A40 000:487.198   CPU_ReadMem(4 bytes @ 0xE0001000)
T4A40 000:487.823   CPU_ReadMem(4 bytes @ 0xE000EE08)
T4A40 000:488.509 - 78.158ms
T4A40 000:488.621 JLINK_Halt()
T4A40 000:488.628 - 0.009ms returns 0x00
T4A40 000:488.644 JLINK_ReadMemU32(0xE000EDF0, 0x1 Items)
T4A40 000:488.659   CPU_ReadMem(4 bytes @ 0xE000EDF0)
T4A40 000:489.534   Data:  03 00 03 00
T4A40 000:489.544   Debug reg: DHCSR
T4A40 000:489.550 - 0.908ms returns 1 (0x1)
T4A40 000:489.641 JLINK_WriteU32_64(0xE000EDF0, 0xA05F0003)
T4A40 000:489.647   Debug reg: DHCSR
T4A40 000:489.880   CPU_WriteMem(4 bytes @ 0xE000EDF0)
T4A40 000:490.811 - 1.175ms returns 0 (0x00000000)
T4A40 000:490.889 JLINK_WriteU32_64(0xE000EDFC, 0x01000000)
T4A40 000:490.895   Debug reg: DEMCR
T4A40 000:490.912   CPU_WriteMem(4 bytes @ 0xE000EDFC)
T4A40 000:491.642 - 0.764ms returns 0 (0x00000000)
T4A40 000:497.783 JLINK_GetHWStatus(...)
T4A40 000:498.623 - 0.850ms returns 0
T4A40 000:503.488 JLINK_GetNumBPUnits(Type = 0xFFFFFF00)
T4A40 000:503.509 - 0.022ms returns 0x08
T4A40 000:503.515 JLINK_GetNumBPUnits(Type = 0xF0)
T4A40 000:503.519 - 0.006ms returns 0x2000
T4A40 000:503.524 JLINK_GetNumWPUnits()
T4A40 000:503.528 - 0.006ms returns 4
T4A40 000:507.350 JLINK_GetSpeed()
T4A40 000:507.364 - 0.018ms returns 4000
T4A40 000:509.872 JLINK_ReadMemU32(0xE000E004, 0x1 Items)
T4A40 000:509.895   CPU_ReadMem(4 bytes @ 0xE000E004)
T4A40 000:510.997   Data:  02 00 00 00
T4A40 000:511.013 - 1.143ms returns 1 (0x1)
T4A40 000:511.144 JLINK_ReadMemU32(0xE000E004, 0x1 Items)
T4A40 000:511.161   CPU_ReadMem(4 bytes @ 0xE000E004)
T4A40 000:511.950   Data:  02 00 00 00
T4A40 000:511.965 - 0.823ms returns 1 (0x1)
T4A40 000:512.065 JLINK_WriteMemEx(0xE0001000, 0x0000001C Bytes, Flags = 0x02000004)
T4A40 000:512.073   Data:  01 00 00 00 00 00 00 00 00 00 00 00 00 00 00 00 ...
T4A40 000:512.087   CPU_WriteMem(28 bytes @ 0xE0001000)
T4A40 000:513.047 - 0.989ms returns 0x1C
T4A40 000:513.149 JLINK_Halt()
T4A40 000:513.155 - 0.008ms returns 0x00
T4A40 000:513.160 JLINK_IsHalted()
T4A40 000:513.165 - 0.006ms returns TRUE
T4A40 000:516.108 JLINK_WriteMem(0x20000000, 0x3FC Bytes, ...)
T4A40 000:516.120   Data:  00 BE 0A E0 0D 78 2D 06 68 40 08 24 40 00 00 D3 ...
T4A40 000:516.320   CPU_WriteMem(1020 bytes @ 0x20000000)
T4A40 000:522.217 - 6.117ms returns 0x3FC
T4A40 000:522.479 JLINK_HasError()
T4A40 000:522.489 JLINK_WriteReg(R0, 0x08000000)
T4A40 000:522.500   CPU_ReadMem(4 bytes @ 0xE000EE08)
T4A40 000:523.204 - 0.721ms returns 0
T4A40 000:523.292 JLINK_WriteReg(R1, 0x00B71B00)
T4A40 000:523.301 - 0.011ms returns 0
T4A40 000:523.306 JLINK_WriteReg(R2, 0x00000001)
T4A40 000:523.311 - 0.006ms returns 0
T4A40 000:523.316 JLINK_WriteReg(R3, 0x00000000)
T4A40 000:523.320 - 0.006ms returns 0
T4A40 000:523.325 JLINK_WriteReg(R4, 0x00000000)
T4A40 000:523.330 - 0.006ms returns 0
T4A40 000:523.335 JLINK_WriteReg(R5, 0x00000000)
T4A40 000:523.339 - 0.006ms returns 0
T4A40 000:523.344 JLINK_WriteReg(R6, 0x00000000)
T4A40 000:523.349 - 0.006ms returns 0
T4A40 000:523.354 JLINK_WriteReg(R7, 0x00000000)
T4A40 000:523.358 - 0.006ms returns 0
T4A40 000:523.363 JLINK_WriteReg(R8, 0x00000000)
T4A40 000:523.375 - 0.013ms returns 0
T4A40 000:523.379 JLINK_WriteReg(R9, 0x200003F8)
T4A40 000:523.384 - 0.006ms returns 0
T4A40 000:523.389 JLINK_WriteReg(R10, 0x00000000)
T4A40 000:523.394 - 0.006ms returns 0
T4A40 000:523.398 JLINK_WriteReg(R11, 0x00000000)
T4A40 000:523.403 - 0.006ms returns 0
T4A40 000:523.408 JLINK_WriteReg(R12, 0x00000000)
T4A40 000:523.413 - 0.006ms returns 0
T4A40 000:523.417 JLINK_WriteReg(R13 (SP), 0x20001000)
T4A40 000:523.423 - 0.007ms returns 0
T4A40 000:523.428 JLINK_WriteReg(R14, 0x20000001)
T4A40 000:523.433 - 0.006ms returns 0
T4A40 000:523.437 JLINK_WriteReg(R15 (PC), 0x20000020)
T4A40 000:523.444 - 0.008ms returns 0
T4A40 000:523.448 JLINK_WriteReg(XPSR, 0x01000000)
T4A40 000:523.453 - 0.006ms returns 0
T4A40 000:523.458 JLINK_WriteReg(MSP, 0x20001000)
T4A40 000:523.462 - 0.006ms returns 0
T4A40 000:523.467 JLINK_WriteReg(PSP, 0x20001000)
T4A40 000:523.472 - 0.006ms returns 0
T4A40 000:523.477 JLINK_WriteReg(CFBP, 0x00000000)
T4A40 000:523.481 - 0.006ms returns 0
T4A40 000:523.486 JLINK_SetBPEx(Addr = 0x20000000, Type = 0xFFFFFFF2)
T4A40 000:523.543 - 0.059ms returns 0x00000001
T4A40 000:523.550 JLINK_Go()
T4A40 000:523.557   CPU_WriteMem(4 bytes @ 0xE0002000)
T4A40 000:524.293   CPU_ReadMem(4 bytes @ 0xE0001000)
T4A40 000:524.924   CPU_WriteMem(4 bytes @ 0xE0002008)
T4A40 000:524.933   CPU_WriteMem(4 bytes @ 0xE000200C)
T4A40 000:524.939   CPU_WriteMem(4 bytes @ 0xE0002010)
T4A40 000:524.945   CPU_WriteMem(4 bytes @ 0xE0002014)
T4A40 000:524.952   CPU_WriteMem(4 bytes @ 0xE0002018)
T4A40 000:524.958   CPU_WriteMem(4 bytes @ 0xE000201C)
T4A40 000:524.964   CPU_WriteMem(4 bytes @ 0xE0002020)
T4A40 000:524.970   CPU_WriteMem(4 bytes @ 0xE0002024)
T4A40 000:526.850   CPU_WriteMem(4 bytes @ 0xE0001004)
T4A40 000:530.534 - 7.009ms
T4A40 000:530.664 JLINK_IsHalted()
T4A40 000:533.799 - 3.147ms returns TRUE
T4A40 000:533.892 JLINK_ReadReg(R15 (PC))
T4A40 000:533.904   CPU_ReadMem(4 bytes @ 0xE000EE08)
T4A40 000:534.643 - 0.756ms returns 0x20000000
T4A40 000:534.721 JLINK_ClrBPEx(BPHandle = 0x00000001)
T4A40 000:534.728 - 0.009ms returns 0x00
T4A40 000:534.733 JLINK_ReadReg(R0)
T4A40 000:534.739 - 0.007ms returns 0x00000000
T4A40 000:535.003 JLINK_HasError()
T4A40 000:535.012 JLINK_WriteReg(R0, 0x08000000)
T4A40 000:535.019 - 0.009ms returns 0
T4A40 000:535.026 JLINK_WriteReg(R1, 0x00000400)
T4A40 000:535.031 - 0.006ms returns 0
T4A40 000:535.036 JLINK_WriteReg(R2, 0x000000FF)
T4A40 000:535.040 - 0.006ms returns 0
T4A40 000:535.045 JLINK_WriteReg(R3, 0x00000000)
T4A40 000:535.050 - 0.006ms returns 0
T4A40 000:535.055 JLINK_WriteReg(R4, 0x00000000)
T4A40 000:535.059 - 0.006ms returns 0
T4A40 000:535.064 JLINK_WriteReg(R5, 0x00000000)
T4A40 000:535.069 - 0.006ms returns 0
T4A40 000:535.073 JLINK_WriteReg(R6, 0x00000000)
T4A40 000:535.078 - 0.006ms returns 0
T4A40 000:535.083 JLINK_WriteReg(R7, 0x00000000)
T4A40 000:535.087 - 0.006ms returns 0
T4A40 000:535.092 JLINK_WriteReg(R8, 0x00000000)
T4A40 000:535.097 - 0.006ms returns 0
T4A40 000:535.102 JLINK_WriteReg(R9, 0x200003F8)
T4A40 000:535.106 - 0.006ms returns 0
T4A40 000:535.111 JLINK_WriteReg(R10, 0x00000000)
T4A40 000:535.116 - 0.006ms returns 0
T4A40 000:535.120 JLINK_WriteReg(R11, 0x00000000)
T4A40 000:535.125 - 0.006ms returns 0
T4A40 000:535.130 JLINK_WriteReg(R12, 0x00000000)
T4A40 000:535.134 - 0.006ms returns 0
T4A40 000:535.139 JLINK_WriteReg(R13 (SP), 0x20001000)
T4A40 000:535.145 - 0.007ms returns 0
T4A40 000:535.149 JLINK_WriteReg(R14, 0x20000001)
T4A40 000:535.154 - 0.006ms returns 0
T4A40 000:535.159 JLINK_WriteReg(R15 (PC), 0x200000F0)
T4A40 000:535.163 - 0.006ms returns 0
T4A40 000:535.168 JLINK_WriteReg(XPSR, 0x01000000)
T4A40 000:535.173 - 0.006ms returns 0
T4A40 000:535.178 JLINK_WriteReg(MSP, 0x20001000)
T4A40 000:535.182 - 0.006ms returns 0
T4A40 000:535.187 JLINK_WriteReg(PSP, 0x20001000)
T4A40 000:535.192 - 0.006ms returns 0
T4A40 000:535.196 JLINK_WriteReg(CFBP, 0x00000000)
T4A40 000:535.201 - 0.006ms returns 0
T4A40 000:535.206 JLINK_SetBPEx(Addr = 0x20000000, Type = 0xFFFFFFF2)
T4A40 000:535.212 - 0.007ms returns 0x00000002
T4A40 000:535.217 JLINK_Go()
T4A40 000:535.224   CPU_WriteMem(4 bytes @ 0xE0002000)
T4A40 000:535.997   CPU_ReadMem(4 bytes @ 0xE0001000)
T4A40 000:539.528 - 4.316ms
T4A40 000:539.607 JLINK_IsHalted()
T4A40 000:542.735 - 3.132ms returns TRUE
T4A40 000:542.811 JLINK_ReadReg(R15 (PC))
T4A40 000:542.818   CPU_ReadMem(4 bytes @ 0xE000EE08)
T4A40 000:543.485 - 0.678ms returns 0x20000000
T4A40 000:543.564 JLINK_ClrBPEx(BPHandle = 0x00000002)
T4A40 000:543.570 - 0.008ms returns 0x00
T4A40 000:543.576 JLINK_ReadReg(R0)
T4A40 000:543.582 - 0.007ms returns 0x00000001
T4A40 000:543.588 JLINK_HasError()
T4A40 000:543.596 JLINK_WriteReg(R0, 0x08000000)
T4A40 000:543.601 - 0.007ms returns 0
T4A40 000:543.607 JLINK_WriteReg(R1, 0x00000400)
T4A40 000:543.612 - 0.006ms returns 0
T4A40 000:543.617 JLINK_WriteReg(R2, 0x000000FF)
T4A40 000:543.622 - 0.006ms returns 0
T4A40 000:543.628 JLINK_WriteReg(R3, 0x00000000)
T4A40 000:543.632 - 0.006ms returns 0
T4A40 000:543.638 JLINK_WriteReg(R4, 0x00000000)
T4A40 000:543.650 - 0.014ms returns 0
T4A40 000:543.656 JLINK_WriteReg(R5, 0x00000000)
T4A40 000:543.660 - 0.006ms returns 0
T4A40 000:543.666 JLINK_WriteReg(R6, 0x00000000)
T4A40 000:543.671 - 0.006ms returns 0
T4A40 000:543.676 JLINK_WriteReg(R7, 0x00000000)
T4A40 000:543.681 - 0.006ms returns 0
T4A40 000:543.686 JLINK_WriteReg(R8, 0x00000000)
T4A40 000:543.691 - 0.006ms returns 0
T4A40 000:543.697 JLINK_WriteReg(R9, 0x200003F8)
T4A40 000:543.701 - 0.006ms returns 0
T4A40 000:543.707 JLINK_WriteReg(R10, 0x00000000)
T4A40 000:543.711 - 0.006ms returns 0
T4A40 000:543.717 JLINK_WriteReg(R11, 0x00000000)
T4A40 000:543.722 - 0.006ms returns 0
T4A40 000:543.727 JLINK_WriteReg(R12, 0x00000000)
T4A40 000:543.732 - 0.006ms returns 0
T4A40 000:543.737 JLINK_WriteReg(R13 (SP), 0x20001000)
T4A40 000:543.743 - 0.007ms returns 0
T4A40 000:543.748 JLINK_WriteReg(R14, 0x20000001)
T4A40 000:543.753 - 0.006ms returns 0
T4A40 000:543.759 JLINK_WriteReg(R15 (PC), 0x200001B0)
T4A40 000:543.763 - 0.006ms returns 0
T4A40 000:543.769 JLINK_WriteReg(XPSR, 0x01000000)
T4A40 000:543.774 - 0.006ms returns 0
T4A40 000:543.779 JLINK_WriteReg(MSP, 0x20001000)
T4A40 000:543.784 - 0.006ms returns 0
T4A40 000:543.789 JLINK_WriteReg(PSP, 0x20001000)
T4A40 000:543.794 - 0.006ms returns 0
T4A40 000:543.800 JLINK_WriteReg(CFBP, 0x00000000)
T4A40 000:543.804 - 0.006ms returns 0
T4A40 000:543.810 JLINK_SetBPEx(Addr = 0x20000000, Type = 0xFFFFFFF2)
T4A40 000:543.815 - 0.007ms returns 0x00000003
T4A40 000:543.820 JLINK_Go()
T4A40 000:543.826   CPU_WriteMem(4 bytes @ 0xE0002000)
T4A40 000:544.559   CPU_ReadMem(4 bytes @ 0xE0001000)
T4A40 000:548.827 - 5.022ms
T4A40 000:548.922 JLINK_IsHalted()
T4A40 000:549.723 - 0.807ms returns FALSE
T4A40 000:549.801 JLINK_HasError()
T4A40 000:564.963 JLINK_IsHalted()
T4A40 000:568.668 - 3.720ms returns TRUE
T4A40 000:568.765 JLINK_ReadReg(R15 (PC))
T4A40 000:568.777   CPU_ReadMem(4 bytes @ 0xE000EE08)
T4A40 000:569.476 - 0.715ms returns 0x20000000
T4A40 000:569.554 JLINK_ClrBPEx(BPHandle = 0x00000003)
T4A40 000:569.561 - 0.008ms returns 0x00
T4A40 000:569.566 JLINK_ReadReg(R0)
T4A40 000:569.572 - 0.008ms returns 0x00000000
T4A40 000:569.950 JLINK_HasError()
T4A40 000:569.959 JLINK_WriteReg(R0, 0x08000400)
T4A40 000:569.970 - 0.012ms returns 0
T4A40 000:569.975 JLINK_WriteReg(R1, 0x00000400)
T4A40 000:569.980 - 0.006ms returns 0
T4A40 000:569.984 JLINK_WriteReg(R2, 0x000000FF)
T4A40 000:569.989 - 0.006ms returns 0
T4A40 000:569.994 JLINK_WriteReg(R3, 0x00000000)
T4A40 000:569.998 - 0.006ms returns 0
T4A40 000:570.003 JLINK_WriteReg(R4, 0x00000000)
T4A40 000:570.008 - 0.006ms returns 0
T4A40 000:570.012 JLINK_WriteReg(R5, 0x00000000)
T4A40 000:570.017 - 0.006ms returns 0
T4A40 000:570.022 JLINK_WriteReg(R6, 0x00000000)
T4A40 000:570.027 - 0.006ms returns 0
T4A40 000:570.031 JLINK_WriteReg(R7, 0x00000000)
T4A40 000:570.036 - 0.006ms returns 0
T4A40 000:570.041 JLINK_WriteReg(R8, 0x00000000)
T4A40 000:570.045 - 0.006ms returns 0
T4A40 000:570.050 JLINK_WriteReg(R9, 0x200003F8)
T4A40 000:570.055 - 0.006ms returns 0
T4A40 000:570.059 JLINK_WriteReg(R10, 0x00000000)
T4A40 000:570.064 - 0.006ms returns 0
T4A40 000:570.069 JLINK_WriteReg(R11, 0x00000000)
T4A40 000:570.073 - 0.006ms returns 0
T4A40 000:570.078 JLINK_WriteReg(R12, 0x00000000)
T4A40 000:570.083 - 0.006ms returns 0
T4A40 000:570.088 JLINK_WriteReg(R13 (SP), 0x20001000)
T4A40 000:570.093 - 0.007ms returns 0
T4A40 000:570.098 JLINK_WriteReg(R14, 0x20000001)
T4A40 000:570.102 - 0.006ms returns 0
T4A40 000:570.107 JLINK_WriteReg(R15 (PC), 0x200000F0)
T4A40 000:570.112 - 0.006ms returns 0
T4A40 000:570.116 JLINK_WriteReg(XPSR, 0x01000000)
T4A40 000:570.121 - 0.006ms returns 0
T4A40 000:570.126 JLINK_WriteReg(MSP, 0x20001000)
T4A40 000:570.131 - 0.006ms returns 0
T4A40 000:570.135 JLINK_WriteReg(PSP, 0x20001000)
T4A40 000:570.140 - 0.006ms returns 0
T4A40 000:570.145 JLINK_WriteReg(CFBP, 0x00000000)
T4A40 000:570.149 - 0.006ms returns 0
T4A40 000:570.154 JLINK_SetBPEx(Addr = 0x20000000, Type = 0xFFFFFFF2)
T4A40 000:570.167 - 0.014ms returns 0x00000004
T4A40 000:570.171 JLINK_Go()
T4A40 000:570.178   CPU_WriteMem(4 bytes @ 0xE0002000)
T4A40 000:571.055   CPU_ReadMem(4 bytes @ 0xE0001000)
T4A40 000:574.609 - 4.444ms
T4A40 000:574.693 JLINK_IsHalted()
T4A40 000:577.881 - 3.199ms returns TRUE
T4A40 000:577.993 JLINK_ReadReg(R15 (PC))
T4A40 000:578.008   CPU_ReadMem(4 bytes @ 0xE000EE08)
T4A40 000:578.982 - 1.011ms returns 0x20000000
T4A40 000:579.142 JLINK_ClrBPEx(BPHandle = 0x00000004)
T4A40 000:579.153 - 0.013ms returns 0x00
T4A40 000:579.162 JLINK_ReadReg(R0)
T4A40 000:579.169 - 0.009ms returns 0x00000001
T4A40 000:579.175 JLINK_HasError()
T4A40 000:579.181 JLINK_WriteReg(R0, 0x08000400)
T4A40 000:579.187 - 0.007ms returns 0
T4A40 000:579.191 JLINK_WriteReg(R1, 0x00000400)
T4A40 000:579.196 - 0.006ms returns 0
T4A40 000:579.201 JLINK_WriteReg(R2, 0x000000FF)
T4A40 000:579.206 - 0.006ms returns 0
T4A40 000:579.210 JLINK_WriteReg(R3, 0x00000000)
T4A40 000:579.215 - 0.006ms returns 0
T4A40 000:579.220 JLINK_WriteReg(R4, 0x00000000)
T4A40 000:579.225 - 0.006ms returns 0
T4A40 000:579.229 JLINK_WriteReg(R5, 0x00000000)
T4A40 000:579.234 - 0.006ms returns 0
T4A40 000:579.239 JLINK_WriteReg(R6, 0x00000000)
T4A40 000:579.243 - 0.006ms returns 0
T4A40 000:579.248 JLINK_WriteReg(R7, 0x00000000)
T4A40 000:579.253 - 0.006ms returns 0
T4A40 000:579.258 JLINK_WriteReg(R8, 0x00000000)
T4A40 000:579.262 - 0.006ms returns 0
T4A40 000:579.267 JLINK_WriteReg(R9, 0x200003F8)
T4A40 000:579.272 - 0.006ms returns 0
T4A40 000:579.276 JLINK_WriteReg(R10, 0x00000000)
T4A40 000:579.281 - 0.006ms returns 0
T4A40 000:579.286 JLINK_WriteReg(R11, 0x00000000)
T4A40 000:579.290 - 0.006ms returns 0
T4A40 000:579.295 JLINK_WriteReg(R12, 0x00000000)
T4A40 000:579.300 - 0.006ms returns 0
T4A40 000:579.305 JLINK_WriteReg(R13 (SP), 0x20001000)
T4A40 000:579.310 - 0.007ms returns 0
T4A40 000:579.315 JLINK_WriteReg(R14, 0x20000001)
T4A40 000:579.319 - 0.006ms returns 0
T4A40 000:579.324 JLINK_WriteReg(R15 (PC), 0x200001B0)
T4A40 000:579.329 - 0.006ms returns 0
T4A40 000:579.334 JLINK_WriteReg(XPSR, 0x01000000)
T4A40 000:579.338 - 0.006ms returns 0
T4A40 000:579.343 JLINK_WriteReg(MSP, 0x20001000)
T4A40 000:579.348 - 0.006ms returns 0
T4A40 000:579.353 JLINK_WriteReg(PSP, 0x20001000)
T4A40 000:579.357 - 0.006ms returns 0
T4A40 000:579.362 JLINK_WriteReg(CFBP, 0x00000000)
T4A40 000:579.367 - 0.006ms returns 0
T4A40 000:579.371 JLINK_SetBPEx(Addr = 0x20000000, Type = 0xFFFFFFF2)
T4A40 000:579.377 - 0.007ms returns 0x00000005
T4A40 000:579.382 JLINK_Go()
T4A40 000:579.390   CPU_WriteMem(4 bytes @ 0xE0002000)
T4A40 000:580.197   CPU_ReadMem(4 bytes @ 0xE0001000)
T4A40 000:583.548 - 4.171ms
T4A40 000:583.623 JLINK_IsHalted()
T4A40 000:584.256 - 0.637ms returns FALSE
T4A40 000:584.328 JLINK_HasError()
T4A40 000:585.967 JLINK_IsHalted()
T4A40 000:589.294 - 3.335ms returns TRUE
T4A40 000:589.402 JLINK_ReadReg(R15 (PC))
T4A40 000:589.412   CPU_ReadMem(4 bytes @ 0xE000EE08)
T4A40 000:590.442 - 1.048ms returns 0x20000000
T4A40 000:590.550 JLINK_ClrBPEx(BPHandle = 0x00000005)
T4A40 000:590.559 - 0.010ms returns 0x00
T4A40 000:590.564 JLINK_ReadReg(R0)
T4A40 000:590.570 - 0.008ms returns 0x00000000
T4A40 000:591.003 JLINK_HasError()
T4A40 000:591.012 JLINK_WriteReg(R0, 0x08000800)
T4A40 000:591.020 - 0.009ms returns 0
T4A40 000:591.025 JLINK_WriteReg(R1, 0x00000400)
T4A40 000:591.029 - 0.006ms returns 0
T4A40 000:591.034 JLINK_WriteReg(R2, 0x000000FF)
T4A40 000:591.039 - 0.006ms returns 0
T4A40 000:591.044 JLINK_WriteReg(R3, 0x00000000)
T4A40 000:591.048 - 0.006ms returns 0
T4A40 000:591.053 JLINK_WriteReg(R4, 0x00000000)
T4A40 000:591.058 - 0.006ms returns 0
T4A40 000:591.062 JLINK_WriteReg(R5, 0x00000000)
T4A40 000:591.067 - 0.006ms returns 0
T4A40 000:591.072 JLINK_WriteReg(R6, 0x00000000)
T4A40 000:591.077 - 0.006ms returns 0
T4A40 000:591.081 JLINK_WriteReg(R7, 0x00000000)
T4A40 000:591.086 - 0.006ms returns 0
T4A40 000:591.091 JLINK_WriteReg(R8, 0x00000000)
T4A40 000:591.103 - 0.014ms returns 0
T4A40 000:591.108 JLINK_WriteReg(R9, 0x200003F8)
T4A40 000:591.112 - 0.006ms returns 0
T4A40 000:591.117 JLINK_WriteReg(R10, 0x00000000)
T4A40 000:591.122 - 0.006ms returns 0
T4A40 000:591.127 JLINK_WriteReg(R11, 0x00000000)
T4A40 000:591.131 - 0.006ms returns 0
T4A40 000:591.136 JLINK_WriteReg(R12, 0x00000000)
T4A40 000:591.141 - 0.006ms returns 0
T4A40 000:591.145 JLINK_WriteReg(R13 (SP), 0x20001000)
T4A40 000:591.151 - 0.007ms returns 0
T4A40 000:591.155 JLINK_WriteReg(R14, 0x20000001)
T4A40 000:591.160 - 0.006ms returns 0
T4A40 000:591.165 JLINK_WriteReg(R15 (PC), 0x200000F0)
T4A40 000:591.170 - 0.006ms returns 0
T4A40 000:591.174 JLINK_WriteReg(XPSR, 0x01000000)
T4A40 000:591.179 - 0.006ms returns 0
T4A40 000:591.184 JLINK_WriteReg(MSP, 0x20001000)
T4A40 000:591.188 - 0.006ms returns 0
T4A40 000:591.193 JLINK_WriteReg(PSP, 0x20001000)
T4A40 000:591.198 - 0.006ms returns 0
T4A40 000:591.202 JLINK_WriteReg(CFBP, 0x00000000)
T4A40 000:591.207 - 0.006ms returns 0
T4A40 000:591.212 JLINK_SetBPEx(Addr = 0x20000000, Type = 0xFFFFFFF2)
T4A40 000:591.217 - 0.007ms returns 0x00000006
T4A40 000:591.222 JLINK_Go()
T4A40 000:591.228   CPU_WriteMem(4 bytes @ 0xE0002000)
T4A40 000:592.103   CPU_ReadMem(4 bytes @ 0xE0001000)
T4A40 000:596.092 - 4.885ms
T4A40 000:596.190 JLINK_IsHalted()
T4A40 000:599.382 - 3.198ms returns TRUE
T4A40 000:599.457 JLINK_ReadReg(R15 (PC))
T4A40 000:599.467   CPU_ReadMem(4 bytes @ 0xE000EE08)
T4A40 000:600.135 - 0.682ms returns 0x20000000
T4A40 000:600.212 JLINK_ClrBPEx(BPHandle = 0x00000006)
T4A40 000:600.218 - 0.008ms returns 0x00
T4A40 000:600.223 JLINK_ReadReg(R0)
T4A40 000:600.229 - 0.007ms returns 0x00000001
T4A40 000:600.235 JLINK_HasError()
T4A40 000:600.240 JLINK_WriteReg(R0, 0x08000800)
T4A40 000:600.245 - 0.007ms returns 0
T4A40 000:600.250 JLINK_WriteReg(R1, 0x00000400)
T4A40 000:600.255 - 0.006ms returns 0
T4A40 000:600.260 JLINK_WriteReg(R2, 0x000000FF)
T4A40 000:600.264 - 0.006ms returns 0
T4A40 000:600.269 JLINK_WriteReg(R3, 0x00000000)
T4A40 000:600.274 - 0.006ms returns 0
T4A40 000:600.278 JLINK_WriteReg(R4, 0x00000000)
T4A40 000:600.283 - 0.006ms returns 0
T4A40 000:600.288 JLINK_WriteReg(R5, 0x00000000)
T4A40 000:600.293 - 0.006ms returns 0
T4A40 000:600.297 JLINK_WriteReg(R6, 0x00000000)
T4A40 000:600.302 - 0.006ms returns 0
T4A40 000:600.307 JLINK_WriteReg(R7, 0x00000000)
T4A40 000:600.311 - 0.006ms returns 0
T4A40 000:600.316 JLINK_WriteReg(R8, 0x00000000)
T4A40 000:600.321 - 0.006ms returns 0
T4A40 000:600.325 JLINK_WriteReg(R9, 0x200003F8)
T4A40 000:600.330 - 0.006ms returns 0
T4A40 000:600.335 JLINK_WriteReg(R10, 0x00000000)
T4A40 000:600.339 - 0.006ms returns 0
T4A40 000:600.344 JLINK_WriteReg(R11, 0x00000000)
T4A40 000:600.349 - 0.006ms returns 0
T4A40 000:600.353 JLINK_WriteReg(R12, 0x00000000)
T4A40 000:600.358 - 0.006ms returns 0
T4A40 000:600.363 JLINK_WriteReg(R13 (SP), 0x20001000)
T4A40 000:600.368 - 0.007ms returns 0
T4A40 000:600.373 JLINK_WriteReg(R14, 0x20000001)
T4A40 000:600.378 - 0.006ms returns 0
T4A40 000:600.382 JLINK_WriteReg(R15 (PC), 0x200001B0)
T4A40 000:600.387 - 0.006ms returns 0
T4A40 000:600.392 JLINK_WriteReg(XPSR, 0x01000000)
T4A40 000:600.397 - 0.006ms returns 0
T4A40 000:600.401 JLINK_WriteReg(MSP, 0x20001000)
T4A40 000:600.406 - 0.006ms returns 0
T4A40 000:600.411 JLINK_WriteReg(PSP, 0x20001000)
T4A40 000:600.415 - 0.006ms returns 0
T4A40 000:600.420 JLINK_WriteReg(CFBP, 0x00000000)
T4A40 000:600.425 - 0.006ms returns 0
T4A40 000:600.429 JLINK_SetBPEx(Addr = 0x20000000, Type = 0xFFFFFFF2)
T4A40 000:600.435 - 0.007ms returns 0x00000007
T4A40 000:600.440 JLINK_Go()
T4A40 000:600.446   CPU_WriteMem(4 bytes @ 0xE0002000)
T4A40 000:601.327   CPU_ReadMem(4 bytes @ 0xE0001000)
T4A40 000:604.934 - 4.500ms
T4A40 000:605.011 JLINK_IsHalted()
T4A40 000:605.686 - 0.701ms returns FALSE
T4A40 000:605.781 JLINK_HasError()
T4A40 000:606.959 JLINK_IsHalted()
T4A40 000:607.696 - 0.741ms returns FALSE
T4A40 000:607.770 JLINK_HasError()
T4A40 000:608.978 JLINK_IsHalted()
T4A40 000:612.158 - 3.193ms returns TRUE
T4A40 000:612.245 JLINK_ReadReg(R15 (PC))
T4A40 000:612.256   CPU_ReadMem(4 bytes @ 0xE000EE08)
T4A40 000:612.922 - 0.682ms returns 0x20000000
T4A40 000:613.021 JLINK_ClrBPEx(BPHandle = 0x00000007)
T4A40 000:613.028 - 0.009ms returns 0x00
T4A40 000:613.033 JLINK_ReadReg(R0)
T4A40 000:613.039 - 0.007ms returns 0x00000000
T4A40 000:613.433 JLINK_HasError()
T4A40 000:613.442 JLINK_WriteReg(R0, 0x08000C00)
T4A40 000:613.449 - 0.009ms returns 0
T4A40 000:613.454 JLINK_WriteReg(R1, 0x00000400)
T4A40 000:613.459 - 0.006ms returns 0
T4A40 000:613.463 JLINK_WriteReg(R2, 0x000000FF)
T4A40 000:613.468 - 0.006ms returns 0
T4A40 000:613.473 JLINK_WriteReg(R3, 0x00000000)
T4A40 000:613.478 - 0.006ms returns 0
T4A40 000:613.482 JLINK_WriteReg(R4, 0x00000000)
T4A40 000:613.487 - 0.006ms returns 0
T4A40 000:613.492 JLINK_WriteReg(R5, 0x00000000)
T4A40 000:613.497 - 0.006ms returns 0
T4A40 000:613.501 JLINK_WriteReg(R6, 0x00000000)
T4A40 000:613.506 - 0.006ms returns 0
T4A40 000:613.511 JLINK_WriteReg(R7, 0x00000000)
T4A40 000:613.515 - 0.006ms returns 0
T4A40 000:613.520 JLINK_WriteReg(R8, 0x00000000)
T4A40 000:613.525 - 0.006ms returns 0
T4A40 000:613.530 JLINK_WriteReg(R9, 0x200003F8)
T4A40 000:613.534 - 0.006ms returns 0
T4A40 000:613.539 JLINK_WriteReg(R10, 0x00000000)
T4A40 000:613.544 - 0.006ms returns 0
T4A40 000:613.549 JLINK_WriteReg(R11, 0x00000000)
T4A40 000:613.553 - 0.006ms returns 0
T4A40 000:613.558 JLINK_WriteReg(R12, 0x00000000)
T4A40 000:613.563 - 0.006ms returns 0
T4A40 000:613.567 JLINK_WriteReg(R13 (SP), 0x20001000)
T4A40 000:613.573 - 0.007ms returns 0
T4A40 000:613.578 JLINK_WriteReg(R14, 0x20000001)
T4A40 000:613.582 - 0.006ms returns 0
T4A40 000:613.587 JLINK_WriteReg(R15 (PC), 0x200000F0)
T4A40 000:613.592 - 0.006ms returns 0
T4A40 000:613.597 JLINK_WriteReg(XPSR, 0x01000000)
T4A40 000:613.601 - 0.006ms returns 0
T4A40 000:613.606 JLINK_WriteReg(MSP, 0x20001000)
T4A40 000:613.611 - 0.006ms returns 0
T4A40 000:613.616 JLINK_WriteReg(PSP, 0x20001000)
T4A40 000:613.620 - 0.006ms returns 0
T4A40 000:613.625 JLINK_WriteReg(CFBP, 0x00000000)
T4A40 000:613.630 - 0.006ms returns 0
T4A40 000:613.634 JLINK_SetBPEx(Addr = 0x20000000, Type = 0xFFFFFFF2)
T4A40 000:613.640 - 0.007ms returns 0x00000008
T4A40 000:613.645 JLINK_Go()
T4A40 000:613.651   CPU_WriteMem(4 bytes @ 0xE0002000)
T4A40 000:614.587   CPU_ReadMem(4 bytes @ 0xE0001000)
T4A40 000:618.136 - 4.497ms
T4A40 000:618.213 JLINK_IsHalted()
T4A40 000:621.212 - 3.006ms returns TRUE
T4A40 000:621.289 JLINK_ReadReg(R15 (PC))
T4A40 000:621.297   CPU_ReadMem(4 bytes @ 0xE000EE08)
T4A40 000:621.931 - 0.647ms returns 0x20000000
T4A40 000:622.006 JLINK_ClrBPEx(BPHandle = 0x00000008)
T4A40 000:622.012 - 0.008ms returns 0x00
T4A40 000:622.017 JLINK_ReadReg(R0)
T4A40 000:622.023 - 0.007ms returns 0x00000001
T4A40 000:622.028 JLINK_HasError()
T4A40 000:622.033 JLINK_WriteReg(R0, 0x08000C00)
T4A40 000:622.038 - 0.007ms returns 0
T4A40 000:622.043 JLINK_WriteReg(R1, 0x00000400)
T4A40 000:622.048 - 0.006ms returns 0
T4A40 000:622.052 JLINK_WriteReg(R2, 0x000000FF)
T4A40 000:622.057 - 0.006ms returns 0
T4A40 000:622.062 JLINK_WriteReg(R3, 0x00000000)
T4A40 000:622.066 - 0.006ms returns 0
T4A40 000:622.071 JLINK_WriteReg(R4, 0x00000000)
T4A40 000:622.076 - 0.006ms returns 0
T4A40 000:622.081 JLINK_WriteReg(R5, 0x00000000)
T4A40 000:622.085 - 0.006ms returns 0
T4A40 000:622.090 JLINK_WriteReg(R6, 0x00000000)
T4A40 000:622.095 - 0.006ms returns 0
T4A40 000:622.099 JLINK_WriteReg(R7, 0x00000000)
T4A40 000:622.104 - 0.006ms returns 0
T4A40 000:622.109 JLINK_WriteReg(R8, 0x00000000)
T4A40 000:622.113 - 0.006ms returns 0
T4A40 000:622.118 JLINK_WriteReg(R9, 0x200003F8)
T4A40 000:622.123 - 0.006ms returns 0
T4A40 000:622.127 JLINK_WriteReg(R10, 0x00000000)
T4A40 000:622.132 - 0.006ms returns 0
T4A40 000:622.137 JLINK_WriteReg(R11, 0x00000000)
T4A40 000:622.141 - 0.006ms returns 0
T4A40 000:622.146 JLINK_WriteReg(R12, 0x00000000)
T4A40 000:622.204 - 0.063ms returns 0
T4A40 000:622.212 JLINK_WriteReg(R13 (SP), 0x20001000)
T4A40 000:622.218 - 0.007ms returns 0
T4A40 000:622.222 JLINK_WriteReg(R14, 0x20000001)
T4A40 000:622.227 - 0.006ms returns 0
T4A40 000:622.232 JLINK_WriteReg(R15 (PC), 0x200001B0)
T4A40 000:622.237 - 0.006ms returns 0
T4A40 000:622.241 JLINK_WriteReg(XPSR, 0x01000000)
T4A40 000:622.246 - 0.006ms returns 0
T4A40 000:622.251 JLINK_WriteReg(MSP, 0x20001000)
T4A40 000:622.256 - 0.006ms returns 0
T4A40 000:622.260 JLINK_WriteReg(PSP, 0x20001000)
T4A40 000:622.265 - 0.006ms returns 0
T4A40 000:622.270 JLINK_WriteReg(CFBP, 0x00000000)
T4A40 000:622.274 - 0.006ms returns 0
T4A40 000:622.279 JLINK_SetBPEx(Addr = 0x20000000, Type = 0xFFFFFFF2)
T4A40 000:622.284 - 0.007ms returns 0x00000009
T4A40 000:622.289 JLINK_Go()
T4A40 000:622.295   CPU_WriteMem(4 bytes @ 0xE0002000)
T4A40 000:623.037   CPU_ReadMem(4 bytes @ 0xE0001000)
T4A40 000:626.551 - 4.272ms
T4A40 000:626.656 JLINK_IsHalted()
T4A40 000:627.323 - 0.671ms returns FALSE
T4A40 000:627.401 JLINK_HasError()
T4A40 000:630.963 JLINK_IsHalted()
T4A40 000:634.130 - 3.175ms returns TRUE
T4A40 000:634.210 JLINK_ReadReg(R15 (PC))
T4A40 000:634.220   CPU_ReadMem(4 bytes @ 0xE000EE08)
T4A40 000:634.864 - 0.658ms returns 0x20000000
T4A40 000:634.942 JLINK_ClrBPEx(BPHandle = 0x00000009)
T4A40 000:634.949 - 0.008ms returns 0x00
T4A40 000:634.954 JLINK_ReadReg(R0)
T4A40 000:634.960 - 0.008ms returns 0x00000000
T4A40 000:635.297 JLINK_HasError()
T4A40 000:635.306 JLINK_WriteReg(R0, 0x08001000)
T4A40 000:635.314 - 0.009ms returns 0
T4A40 000:635.318 JLINK_WriteReg(R1, 0x00000400)
T4A40 000:635.323 - 0.006ms returns 0
T4A40 000:635.328 JLINK_WriteReg(R2, 0x000000FF)
T4A40 000:635.333 - 0.006ms returns 0
T4A40 000:635.338 JLINK_WriteReg(R3, 0x00000000)
T4A40 000:635.343 - 0.006ms returns 0
T4A40 000:635.347 JLINK_WriteReg(R4, 0x00000000)
T4A40 000:635.352 - 0.006ms returns 0
T4A40 000:635.357 JLINK_WriteReg(R5, 0x00000000)
T4A40 000:635.361 - 0.006ms returns 0
T4A40 000:635.366 JLINK_WriteReg(R6, 0x00000000)
T4A40 000:635.372 - 0.007ms returns 0
T4A40 000:635.376 JLINK_WriteReg(R7, 0x00000000)
T4A40 000:635.381 - 0.006ms returns 0
T4A40 000:635.386 JLINK_WriteReg(R8, 0x00000000)
T4A40 000:635.390 - 0.006ms returns 0
T4A40 000:635.395 JLINK_WriteReg(R9, 0x200003F8)
T4A40 000:635.400 - 0.006ms returns 0
T4A40 000:635.405 JLINK_WriteReg(R10, 0x00000000)
T4A40 000:635.409 - 0.006ms returns 0
T4A40 000:635.414 JLINK_WriteReg(R11, 0x00000000)
T4A40 000:635.419 - 0.006ms returns 0
T4A40 000:635.423 JLINK_WriteReg(R12, 0x00000000)
T4A40 000:635.428 - 0.006ms returns 0
T4A40 000:635.433 JLINK_WriteReg(R13 (SP), 0x20001000)
T4A40 000:635.438 - 0.007ms returns 0
T4A40 000:635.443 JLINK_WriteReg(R14, 0x20000001)
T4A40 000:635.448 - 0.006ms returns 0
T4A40 000:635.452 JLINK_WriteReg(R15 (PC), 0x200000F0)
T4A40 000:635.457 - 0.006ms returns 0
T4A40 000:635.462 JLINK_WriteReg(XPSR, 0x01000000)
T4A40 000:635.467 - 0.006ms returns 0
T4A40 000:635.471 JLINK_WriteReg(MSP, 0x20001000)
T4A40 000:635.476 - 0.006ms returns 0
T4A40 000:635.481 JLINK_WriteReg(PSP, 0x20001000)
T4A40 000:635.485 - 0.006ms returns 0
T4A40 000:635.490 JLINK_WriteReg(CFBP, 0x00000000)
T4A40 000:635.495 - 0.006ms returns 0
T4A40 000:635.499 JLINK_SetBPEx(Addr = 0x20000000, Type = 0xFFFFFFF2)
T4A40 000:635.505 - 0.007ms returns 0x0000000A
T4A40 000:635.510 JLINK_Go()
T4A40 000:635.517   CPU_WriteMem(4 bytes @ 0xE0002000)
T4A40 000:636.227   CPU_ReadMem(4 bytes @ 0xE0001000)
T4A40 000:639.602 - 4.097ms
T4A40 000:639.678 JLINK_IsHalted()
T4A40 000:642.874 - 3.210ms returns TRUE
T4A40 000:642.967 JLINK_ReadReg(R15 (PC))
T4A40 000:643.000   CPU_ReadMem(4 bytes @ 0xE000EE08)
T4A40 000:643.751 - 0.790ms returns 0x20000000
T4A40 000:643.832 JLINK_ClrBPEx(BPHandle = 0x0000000A)
T4A40 000:643.839 - 0.008ms returns 0x00
T4A40 000:643.844 JLINK_ReadReg(R0)
T4A40 000:643.850 - 0.007ms returns 0x00000001
T4A40 000:643.855 JLINK_HasError()
T4A40 000:643.861 JLINK_WriteReg(R0, 0x08001000)
T4A40 000:643.918 - 0.060ms returns 0
T4A40 000:643.924 JLINK_WriteReg(R1, 0x00000400)
T4A40 000:643.929 - 0.006ms returns 0
T4A40 000:643.933 JLINK_WriteReg(R2, 0x000000FF)
T4A40 000:643.938 - 0.006ms returns 0
T4A40 000:643.943 JLINK_WriteReg(R3, 0x00000000)
T4A40 000:643.948 - 0.006ms returns 0
T4A40 000:643.952 JLINK_WriteReg(R4, 0x00000000)
T4A40 000:643.957 - 0.006ms returns 0
T4A40 000:643.962 JLINK_WriteReg(R5, 0x00000000)
T4A40 000:643.966 - 0.006ms returns 0
T4A40 000:643.971 JLINK_WriteReg(R6, 0x00000000)
T4A40 000:643.975 - 0.006ms returns 0
T4A40 000:643.980 JLINK_WriteReg(R7, 0x00000000)
T4A40 000:643.985 - 0.006ms returns 0
T4A40 000:643.989 JLINK_WriteReg(R8, 0x00000000)
T4A40 000:643.994 - 0.006ms returns 0
T4A40 000:643.999 JLINK_WriteReg(R9, 0x200003F8)
T4A40 000:644.003 - 0.006ms returns 0
T4A40 000:644.008 JLINK_WriteReg(R10, 0x00000000)
T4A40 000:644.013 - 0.006ms returns 0
T4A40 000:644.018 JLINK_WriteReg(R11, 0x00000000)
T4A40 000:644.024 - 0.007ms returns 0
T4A40 000:644.028 JLINK_WriteReg(R12, 0x00000000)
T4A40 000:644.033 - 0.006ms returns 0
T4A40 000:644.038 JLINK_WriteReg(R13 (SP), 0x20001000)
T4A40 000:644.043 - 0.007ms returns 0
T4A40 000:644.048 JLINK_WriteReg(R14, 0x20000001)
T4A40 000:644.052 - 0.006ms returns 0
T4A40 000:644.057 JLINK_WriteReg(R15 (PC), 0x200001B0)
T4A40 000:644.062 - 0.006ms returns 0
T4A40 000:644.067 JLINK_WriteReg(XPSR, 0x01000000)
T4A40 000:644.072 - 0.006ms returns 0
T4A40 000:644.076 JLINK_WriteReg(MSP, 0x20001000)
T4A40 000:644.081 - 0.006ms returns 0
T4A40 000:644.086 JLINK_WriteReg(PSP, 0x20001000)
T4A40 000:644.090 - 0.006ms returns 0
T4A40 000:644.095 JLINK_WriteReg(CFBP, 0x00000000)
T4A40 000:644.102 - 0.009ms returns 0
T4A40 000:644.108 JLINK_SetBPEx(Addr = 0x20000000, Type = 0xFFFFFFF2)
T4A40 000:644.116 - 0.011ms returns 0x0000000B
T4A40 000:644.123 JLINK_Go()
T4A40 000:644.132   CPU_WriteMem(4 bytes @ 0xE0002000)
T4A40 000:645.040   CPU_ReadMem(4 bytes @ 0xE0001000)
T4A40 000:648.548 - 4.431ms
T4A40 000:648.628 JLINK_IsHalted()
T4A40 000:649.294 - 0.670ms returns FALSE
T4A40 000:649.373 JLINK_HasError()
T4A40 000:653.991 JLINK_IsHalted()
T4A40 000:657.161 - 3.184ms returns TRUE
T4A40 000:657.302 JLINK_ReadReg(R15 (PC))
T4A40 000:657.321   CPU_ReadMem(4 bytes @ 0xE000EE08)
T4A40 000:658.082 - 0.789ms returns 0x20000000
T4A40 000:658.204 JLINK_ClrBPEx(BPHandle = 0x0000000B)
T4A40 000:658.215 - 0.014ms returns 0x00
T4A40 000:658.222 JLINK_ReadReg(R0)
T4A40 000:658.231 - 0.011ms returns 0x00000000
T4A40 000:658.656 JLINK_HasError()
T4A40 000:658.666 JLINK_WriteReg(R0, 0x08001400)
T4A40 000:658.674 - 0.010ms returns 0
T4A40 000:658.679 JLINK_WriteReg(R1, 0x00000400)
T4A40 000:658.684 - 0.007ms returns 0
T4A40 000:658.689 JLINK_WriteReg(R2, 0x000000FF)
T4A40 000:658.694 - 0.006ms returns 0
T4A40 000:658.699 JLINK_WriteReg(R3, 0x00000000)
T4A40 000:658.703 - 0.006ms returns 0
T4A40 000:658.708 JLINK_WriteReg(R4, 0x00000000)
T4A40 000:658.713 - 0.006ms returns 0
T4A40 000:658.717 JLINK_WriteReg(R5, 0x00000000)
T4A40 000:658.722 - 0.006ms returns 0
T4A40 000:658.727 JLINK_WriteReg(R6, 0x00000000)
T4A40 000:658.732 - 0.006ms returns 0
T4A40 000:658.736 JLINK_WriteReg(R7, 0x00000000)
T4A40 000:658.741 - 0.006ms returns 0
T4A40 000:658.746 JLINK_WriteReg(R8, 0x00000000)
T4A40 000:658.750 - 0.006ms returns 0
T4A40 000:658.755 JLINK_WriteReg(R9, 0x200003F8)
T4A40 000:658.760 - 0.006ms returns 0
T4A40 000:658.765 JLINK_WriteReg(R10, 0x00000000)
T4A40 000:658.769 - 0.006ms returns 0
T4A40 000:658.774 JLINK_WriteReg(R11, 0x00000000)
T4A40 000:658.779 - 0.006ms returns 0
T4A40 000:658.784 JLINK_WriteReg(R12, 0x00000000)
T4A40 000:658.788 - 0.006ms returns 0
T4A40 000:658.793 JLINK_WriteReg(R13 (SP), 0x20001000)
T4A40 000:658.798 - 0.007ms returns 0
T4A40 000:658.803 JLINK_WriteReg(R14, 0x20000001)
T4A40 000:658.808 - 0.006ms returns 0
T4A40 000:658.813 JLINK_WriteReg(R15 (PC), 0x200000F0)
T4A40 000:658.818 - 0.006ms returns 0
T4A40 000:658.822 JLINK_WriteReg(XPSR, 0x01000000)
T4A40 000:658.885 - 0.064ms returns 0
T4A40 000:658.890 JLINK_WriteReg(MSP, 0x20001000)
T4A40 000:658.895 - 0.006ms returns 0
T4A40 000:658.900 JLINK_WriteReg(PSP, 0x20001000)
T4A40 000:658.904 - 0.006ms returns 0
T4A40 000:658.909 JLINK_WriteReg(CFBP, 0x00000000)
T4A40 000:658.914 - 0.006ms returns 0
T4A40 000:658.919 JLINK_SetBPEx(Addr = 0x20000000, Type = 0xFFFFFFF2)
T4A40 000:658.924 - 0.007ms returns 0x0000000C
T4A40 000:658.930 JLINK_Go()
T4A40 000:658.937   CPU_WriteMem(4 bytes @ 0xE0002000)
T4A40 000:659.785   CPU_ReadMem(4 bytes @ 0xE0001000)
T4A40 000:663.377 - 4.459ms
T4A40 000:663.476 JLINK_IsHalted()
T4A40 000:666.583 - 3.111ms returns TRUE
T4A40 000:666.657 JLINK_ReadReg(R15 (PC))
T4A40 000:666.666   CPU_ReadMem(4 bytes @ 0xE000EE08)
T4A40 000:667.384 - 0.757ms returns 0x20000000
T4A40 000:667.487 JLINK_ClrBPEx(BPHandle = 0x0000000C)
T4A40 000:667.493 - 0.008ms returns 0x00
T4A40 000:667.499 JLINK_ReadReg(R0)
T4A40 000:667.504 - 0.007ms returns 0x00000001
T4A40 000:667.510 JLINK_HasError()
T4A40 000:667.515 JLINK_WriteReg(R0, 0x08001400)
T4A40 000:667.521 - 0.007ms returns 0
T4A40 000:667.526 JLINK_WriteReg(R1, 0x00000400)
T4A40 000:667.531 - 0.006ms returns 0
T4A40 000:667.535 JLINK_WriteReg(R2, 0x000000FF)
T4A40 000:667.540 - 0.006ms returns 0
T4A40 000:667.545 JLINK_WriteReg(R3, 0x00000000)
T4A40 000:667.549 - 0.006ms returns 0
T4A40 000:667.554 JLINK_WriteReg(R4, 0x00000000)
T4A40 000:667.559 - 0.006ms returns 0
T4A40 000:667.563 JLINK_WriteReg(R5, 0x00000000)
T4A40 000:667.568 - 0.006ms returns 0
T4A40 000:667.573 JLINK_WriteReg(R6, 0x00000000)
T4A40 000:667.578 - 0.006ms returns 0
T4A40 000:667.582 JLINK_WriteReg(R7, 0x00000000)
T4A40 000:667.587 - 0.006ms returns 0
T4A40 000:667.592 JLINK_WriteReg(R8, 0x00000000)
T4A40 000:667.596 - 0.006ms returns 0
T4A40 000:667.601 JLINK_WriteReg(R9, 0x200003F8)
T4A40 000:667.606 - 0.006ms returns 0
T4A40 000:667.611 JLINK_WriteReg(R10, 0x00000000)
T4A40 000:667.615 - 0.006ms returns 0
T4A40 000:667.620 JLINK_WriteReg(R11, 0x00000000)
T4A40 000:667.625 - 0.006ms returns 0
T4A40 000:667.630 JLINK_WriteReg(R12, 0x00000000)
T4A40 000:667.634 - 0.006ms returns 0
T4A40 000:667.639 JLINK_WriteReg(R13 (SP), 0x20001000)
T4A40 000:667.644 - 0.007ms returns 0
T4A40 000:667.649 JLINK_WriteReg(R14, 0x20000001)
T4A40 000:667.654 - 0.006ms returns 0
T4A40 000:667.659 JLINK_WriteReg(R15 (PC), 0x200001B0)
T4A40 000:667.663 - 0.006ms returns 0
T4A40 000:667.668 JLINK_WriteReg(XPSR, 0x01000000)
T4A40 000:667.673 - 0.006ms returns 0
T4A40 000:667.678 JLINK_WriteReg(MSP, 0x20001000)
T4A40 000:667.682 - 0.006ms returns 0
T4A40 000:667.687 JLINK_WriteReg(PSP, 0x20001000)
T4A40 000:667.692 - 0.006ms returns 0
T4A40 000:667.696 JLINK_WriteReg(CFBP, 0x00000000)
T4A40 000:667.701 - 0.006ms returns 0
T4A40 000:667.706 JLINK_SetBPEx(Addr = 0x20000000, Type = 0xFFFFFFF2)
T4A40 000:667.711 - 0.007ms returns 0x0000000D
T4A40 000:667.716 JLINK_Go()
T4A40 000:667.723   CPU_WriteMem(4 bytes @ 0xE0002000)
T4A40 000:668.538   CPU_ReadMem(4 bytes @ 0xE0001000)
T4A40 000:672.008 - 4.301ms
T4A40 000:672.102 JLINK_IsHalted()
T4A40 000:672.897 - 0.800ms returns FALSE
T4A40 000:673.027 JLINK_HasError()
T4A40 000:674.965 JLINK_IsHalted()
T4A40 000:678.570 - 3.618ms returns TRUE
T4A40 000:678.662 JLINK_ReadReg(R15 (PC))
T4A40 000:678.675   CPU_ReadMem(4 bytes @ 0xE000EE08)
T4A40 000:679.498 - 0.841ms returns 0x20000000
T4A40 000:679.576 JLINK_ClrBPEx(BPHandle = 0x0000000D)
T4A40 000:679.583 - 0.010ms returns 0x00
T4A40 000:679.589 JLINK_ReadReg(R0)
T4A40 000:679.595 - 0.008ms returns 0x00000000
T4A40 000:680.037 JLINK_HasError()
T4A40 000:680.047 JLINK_WriteReg(R0, 0x08001800)
T4A40 000:680.055 - 0.009ms returns 0
T4A40 000:680.060 JLINK_WriteReg(R1, 0x00000400)
T4A40 000:680.065 - 0.006ms returns 0
T4A40 000:680.069 JLINK_WriteReg(R2, 0x000000FF)
T4A40 000:680.074 - 0.006ms returns 0
T4A40 000:680.079 JLINK_WriteReg(R3, 0x00000000)
T4A40 000:680.084 - 0.006ms returns 0
T4A40 000:680.089 JLINK_WriteReg(R4, 0x00000000)
T4A40 000:680.100 - 0.013ms returns 0
T4A40 000:680.105 JLINK_WriteReg(R5, 0x00000000)
T4A40 000:680.109 - 0.006ms returns 0
T4A40 000:680.114 JLINK_WriteReg(R6, 0x00000000)
T4A40 000:680.119 - 0.006ms returns 0
T4A40 000:680.123 JLINK_WriteReg(R7, 0x00000000)
T4A40 000:680.128 - 0.006ms returns 0
T4A40 000:680.133 JLINK_WriteReg(R8, 0x00000000)
T4A40 000:680.138 - 0.006ms returns 0
T4A40 000:680.143 JLINK_WriteReg(R9, 0x200003F8)
T4A40 000:680.147 - 0.006ms returns 0
T4A40 000:680.152 JLINK_WriteReg(R10, 0x00000000)
T4A40 000:680.157 - 0.006ms returns 0
T4A40 000:680.161 JLINK_WriteReg(R11, 0x00000000)
T4A40 000:680.166 - 0.006ms returns 0
T4A40 000:680.171 JLINK_WriteReg(R12, 0x00000000)
T4A40 000:680.175 - 0.006ms returns 0
T4A40 000:680.180 JLINK_WriteReg(R13 (SP), 0x20001000)
T4A40 000:680.186 - 0.007ms returns 0
T4A40 000:680.190 JLINK_WriteReg(R14, 0x20000001)
T4A40 000:680.195 - 0.006ms returns 0
T4A40 000:680.200 JLINK_WriteReg(R15 (PC), 0x200000F0)
T4A40 000:680.205 - 0.006ms returns 0
T4A40 000:680.210 JLINK_WriteReg(XPSR, 0x01000000)
T4A40 000:680.214 - 0.006ms returns 0
T4A40 000:680.219 JLINK_WriteReg(MSP, 0x20001000)
T4A40 000:680.224 - 0.006ms returns 0
T4A40 000:680.228 JLINK_WriteReg(PSP, 0x20001000)
T4A40 000:680.233 - 0.006ms returns 0
T4A40 000:680.238 JLINK_WriteReg(CFBP, 0x00000000)
T4A40 000:680.243 - 0.006ms returns 0
T4A40 000:680.247 JLINK_SetBPEx(Addr = 0x20000000, Type = 0xFFFFFFF2)
T4A40 000:680.253 - 0.007ms returns 0x0000000E
T4A40 000:680.258 JLINK_Go()
T4A40 000:680.265   CPU_WriteMem(4 bytes @ 0xE0002000)
T4A40 000:681.046   CPU_ReadMem(4 bytes @ 0xE0001000)
T4A40 000:684.621 - 4.368ms
T4A40 000:684.713 JLINK_IsHalted()
T4A40 000:687.812 - 3.104ms returns TRUE
T4A40 000:687.890 JLINK_ReadReg(R15 (PC))
T4A40 000:687.899   CPU_ReadMem(4 bytes @ 0xE000EE08)
